
T6198 000:033 SEGGER J-Link V6.10j Log File (0000ms, 0017ms total)
T6198 000:033 DLL Compiled: Oct 31 2016 17:41:24 (0000ms, 0017ms total)
T6198 000:033 Logging started @ 2024-04-19 23:40 (0000ms, 0017ms total)
T6198 000:033 JLINK_SetWarnOutHandler(...) (0000ms, 0017ms total)
T6198 000:033 JLINK_OpenEx(...)
Firmware: J-Link ARM-OB STM32 compiled Aug 22 2012 19:52:04
Hardware: V7.00
S/N: 20090928
Feature(s): RDI,FlashDL,FlashBP,JFlash,GDBWEBSRV Webserver running on local port 19080 (0011ms, 0028ms total)
T6198 000:033   returns O.K. (0011ms, 0028ms total)
T6198 000:044 JLINK_SetErrorOutHandler(...) (0000ms, 0028ms total)
T6198 000:044 JLINK_ExecCommand("ProjectFile = "C:\Users\86135\OneDrive\桌面\无人机\RM\2024_Embedded\drone_c\MDK-ARM\JLinkSettings.ini"", ...).   returns 0x00 (0077ms, 0105ms total)
T6198 000:121 JLINK_ExecCommand("Device = STM32F407IGHx", ...). Device "STM32F407IG" selected.  returns 0x00 (0001ms, 0106ms total)
T6198 000:122 JLINK_ExecCommand("DisableConnectionTimeout", ...).   returns 0x01 (0000ms, 0106ms total)
T6198 000:122 JLINK_GetHardwareVersion()  returns 0x11170 (0000ms, 0106ms total)
T6198 000:122 JLINK_GetDLLVersion()  returns 61010 (0000ms, 0106ms total)
T6198 000:122 JLINK_GetFirmwareString(...) (0000ms, 0106ms total)
T6198 000:122 JLINK_GetDLLVersion()  returns 61010 (0000ms, 0106ms total)
T6198 000:122 JLINK_GetCompileDateTime() (0000ms, 0106ms total)
T6198 000:122 JLINK_GetFirmwareString(...) (0000ms, 0106ms total)
T6198 000:122 JLINK_GetHardwareVersion()  returns 0x11170 (0000ms, 0106ms total)
T6198 000:123 JLINK_TIF_Select(JLINKARM_TIF_SWD)  returns 0x00 (0000ms, 0106ms total)
T6198 000:123 JLINK_SetSpeed(5000) (0000ms, 0106ms total)
T6198 000:123 JLINK_GetId() >0x108 TIF>Found SWD-DP with ID 0x2BA01477 >0x0D TIF> >0x28 TIF> >0x0D TIF> >0x28 TIF> >0x0D TIF> >0x28 TIF> >0x0D TIF> >0x28 TIF> >0x0D TIF> >0x21 TIF> >0x0D TIF> >0x28 TIF> >0x0D TIF> >0x28 TIF> >0x0D TIF> >0x28 TIF> >0x0D TIF> >0x21 TIF> >0x0D TIF> >0x21 TIF> >0x0D TIF> >0x28 TIF> >0x0D TIF> >0x21 TIF> >0x0D TIF> >0x21 TIF> >0x0D TIF> >0x28 TIF> >0x0D TIF> >0x21 TIF> >0x0D TIF> >0x21 TIF> >0x0D TIF> >0x28 TIF> >0x0D TIF> >0x21 TIF> >0x0D TIF> >0x21 TIF> >0x0D TIF>
 >0x28 TIF> >0x0D TIF> >0x21 TIF> >0x0D TIF> >0x21 TIF> >0x0D TIF> >0x28 TIF> >0x0D TIF> >0x21 TIF> >0x0D TIF> >0x21 TIF> >0x108 TIF>Found SWD-DP with ID 0x2BA01477 >0x0D TIF> >0x28 TIF> >0x0D TIF> >0x28 TIF> >0x0D TIF> >0x28 TIF> >0x0D TIF> >0x28 TIF> >0x0D TIF> >0x21 TIF> >0x0D TIF> >0x28 TIF> >0x0D TIF> >0x28 TIF> >0x0D TIF> >0x21 TIF> >0x0D TIF> >0x21 TIF> >0x0D TIF> >0x21 TIF>AP-IDR: 0x24770011, Type: AHB-AP >0x0D TIF> >0x28 TIF> >0x0D TIF> >0x28 TIF> >0x0D TIF> >0x28 TIF> >0x0D TIF> >0x21 TIF>
 >0x0D TIF> >0x21 TIF> >0x0D TIF> >0x28 TIF> >0x0D TIF> >0x21 TIF> >0x0D TIF> >0x21 TIF>Found Cortex-M4 r0p1, Little endian. -- CPU_ReadMem(4 bytes @ 0xE000EDF0) -- CPU_WriteMem(4 bytes @ 0xE000EDF0) -- CPU_ReadMem(4 bytes @ 0xE0002000)FPUnit: 6 code (BP) slots and 2 literal slots -- CPU_ReadMem(4 bytes @ 0xE000EDFC) -- CPU_WriteMem(4 bytes @ 0xE000EDFC) -- CPU_ReadMem(4 bytes @ 0xE0001000) -- CPU_WriteMem(4 bytes @ 0xE0001000) -- CPU_ReadMem(4 bytes @ 0xE000ED88) -- CPU_WriteMem(4 bytes @ 0xE000ED88)
 -- CPU_ReadMem(4 bytes @ 0xE000ED88) -- CPU_WriteMem(4 bytes @ 0xE000ED88)CoreSight components:ROMTbl 0 @ E00FF000 -- CPU_ReadMem(16 bytes @ 0xE00FF000) -- CPU_ReadMem(16 bytes @ 0xE000EFF0) -- CPU_ReadMem(16 bytes @ 0xE000EFE0)ROMTbl 0 [0]: FFF0F000, CID: B105E00D, PID: 000BB00C SCS -- CPU_ReadMem(16 bytes @ 0xE0001FF0) -- CPU_ReadMem(16 bytes @ 0xE0001FE0)ROMTbl 0 [1]: FFF02000, CID: B105E00D, PID: 003BB002 DWT -- CPU_ReadMem(16 bytes @ 0xE0002FF0) -- CPU_ReadMem(16 bytes @ 0xE0002FE0)
ROMTbl 0 [2]: FFF03000, CID: B105E00D, PID: 002BB003 FPB -- CPU_ReadMem(16 bytes @ 0xE0000FF0) -- CPU_ReadMem(16 bytes @ 0xE0000FE0)ROMTbl 0 [3]: FFF01000, CID: B105E00D, PID: 003BB001 ITM -- CPU_ReadMem(16 bytes @ 0xE00FF010) -- CPU_ReadMem(16 bytes @ 0xE0040FF0) -- CPU_ReadMem(16 bytes @ 0xE0040FE0)ROMTbl 0 [4]: FFF41000, CID: B105900D, PID: 000BB9A1 TPIU -- CPU_ReadMem(16 bytes @ 0xE0041FF0) -- CPU_ReadMem(16 bytes @ 0xE0041FE0)ROMTbl 0 [5]: FFF42000, CID: B105900D, PID: 000BB925 ETM >0x0D TIF>
 >0x21 TIF>  returns 0x2BA01477 (0033ms, 0139ms total)
T6198 000:156 JLINK_GetDLLVersion()  returns 61010 (0000ms, 0139ms total)
T6198 000:156 JLINK_CORE_GetFound()  returns 0xE0000FF (0000ms, 0139ms total)
T6198 000:156 JLINK_GetDebugInfo(0x100) -- Value=0xE00FF000  returns 0x00 (0000ms, 0139ms total)
T6198 000:156 JLINK_ReadMem (0xE00FF000, 0x0020 Bytes, ...) -- CPU is running -- CPU_ReadMem(32 bytes @ 0xE00FF000) - Data: 03 F0 F0 FF 03 20 F0 FF 03 30 F0 FF 03 10 F0 FF ...  returns 0x00 (0001ms, 0140ms total)
T6198 000:157 JLINK_ReadMem (0xE000EFF0, 0x0010 Bytes, ...) -- CPU is running -- CPU_ReadMem(16 bytes @ 0xE000EFF0) - Data: 0D 00 00 00 E0 00 00 00 05 00 00 00 B1 00 00 00  returns 0x00 (0000ms, 0140ms total)
T6198 000:157 JLINK_ReadMem (0xE000EFD0, 0x0020 Bytes, ...) -- CPU is running -- CPU_ReadMem(32 bytes @ 0xE000EFD0) - Data: 04 00 00 00 00 00 00 00 00 00 00 00 00 00 00 00 ...  returns 0x00 (0001ms, 0141ms total)
T6198 000:158 JLINK_ReadMem (0xE0001FF0, 0x0010 Bytes, ...) -- CPU is running -- CPU_ReadMem(16 bytes @ 0xE0001FF0) - Data: 0D 00 00 00 E0 00 00 00 05 00 00 00 B1 00 00 00  returns 0x00 (0001ms, 0142ms total)
T6198 000:159 JLINK_ReadMem (0xE0001FD0, 0x0020 Bytes, ...) -- CPU is running -- CPU_ReadMem(32 bytes @ 0xE0001FD0) - Data: 04 00 00 00 00 00 00 00 00 00 00 00 00 00 00 00 ...  returns 0x00 (0001ms, 0143ms total)
T6198 000:160 JLINK_ReadMem (0xE0002FF0, 0x0010 Bytes, ...) -- CPU is running -- CPU_ReadMem(16 bytes @ 0xE0002FF0) - Data: 0D 00 00 00 E0 00 00 00 05 00 00 00 B1 00 00 00  returns 0x00 (0000ms, 0143ms total)
T6198 000:160 JLINK_ReadMem (0xE0002FD0, 0x0020 Bytes, ...) -- CPU is running -- CPU_ReadMem(32 bytes @ 0xE0002FD0) - Data: 04 00 00 00 00 00 00 00 00 00 00 00 00 00 00 00 ...  returns 0x00 (0001ms, 0144ms total)
T6198 000:161 JLINK_ReadMem (0xE0000FF0, 0x0010 Bytes, ...) -- CPU is running -- CPU_ReadMem(16 bytes @ 0xE0000FF0) - Data: 0D 00 00 00 E0 00 00 00 05 00 00 00 B1 00 00 00  returns 0x00 (0000ms, 0144ms total)
T6198 000:161 JLINK_ReadMem (0xE0000FD0, 0x0020 Bytes, ...) -- CPU is running -- CPU_ReadMem(32 bytes @ 0xE0000FD0) - Data: 04 00 00 00 00 00 00 00 00 00 00 00 00 00 00 00 ...  returns 0x00 (0001ms, 0145ms total)
T6198 000:162 JLINK_ReadMem (0xE0040FF0, 0x0010 Bytes, ...) -- CPU is running -- CPU_ReadMem(16 bytes @ 0xE0040FF0) - Data: 0D 00 00 00 90 00 00 00 05 00 00 00 B1 00 00 00  returns 0x00 (0001ms, 0146ms total)
T6198 000:163 JLINK_ReadMem (0xE0040FD0, 0x0020 Bytes, ...) -- CPU is running -- CPU_ReadMem(32 bytes @ 0xE0040FD0) - Data: 04 00 00 00 00 00 00 00 00 00 00 00 00 00 00 00 ...  returns 0x00 (0001ms, 0147ms total)
T6198 000:164 JLINK_ReadMem (0xE0041FF0, 0x0010 Bytes, ...) -- CPU is running -- CPU_ReadMem(16 bytes @ 0xE0041FF0) - Data: 0D 00 00 00 90 00 00 00 05 00 00 00 B1 00 00 00  returns 0x00 (0000ms, 0147ms total)
T6198 000:164 JLINK_ReadMem (0xE0041FD0, 0x0020 Bytes, ...) -- CPU is running -- CPU_ReadMem(32 bytes @ 0xE0041FD0) - Data: 04 00 00 00 00 00 00 00 00 00 00 00 00 00 00 00 ...  returns 0x00 (0001ms, 0148ms total)
T6198 000:165 JLINK_ReadMemU32(0xE000EF40, 0x0001 Items, ...) -- CPU is running -- CPU_ReadMem(4 bytes @ 0xE000EF40) - Data: 21 00 11 10  returns 0x01 (0001ms, 0149ms total)
T6198 000:166 JLINK_ReadMemU32(0xE000EF44, 0x0001 Items, ...) -- CPU is running -- CPU_ReadMem(4 bytes @ 0xE000EF44) - Data: 11 00 00 11  returns 0x01 (0001ms, 0150ms total)
T6198 000:167 JLINK_ReadMemU32(0xE000ED00, 0x0001 Items, ...) -- CPU is running -- CPU_ReadMem(4 bytes @ 0xE000ED00) - Data: 41 C2 0F 41  returns 0x01 (0000ms, 0150ms total)
T6198 000:167 JLINK_SetResetType(JLINKARM_RESET_TYPE_NORMAL)  returns JLINKARM_RESET_TYPE_NORMAL (0000ms, 0150ms total)
T6198 000:167 JLINK_Reset() -- CPU is running -- CPU_WriteMem(4 bytes @ 0xE000EDF0) -- CPU is running -- CPU_WriteMem(4 bytes @ 0xE000EDFC) >0x35 TIF> -- CPU is running -- CPU_WriteMem(4 bytes @ 0xE000ED0C) -- CPU is running -- CPU_ReadMem(4 bytes @ 0xE000EDF0) -- CPU is running -- CPU_ReadMem(4 bytes @ 0xE000EDF0) -- CPU is running -- CPU_WriteMem(4 bytes @ 0xE000EDF0) -- CPU is running -- CPU_WriteMem(4 bytes @ 0xE000EDFC) -- CPU is running -- CPU_ReadMem(4 bytes @ 0xE000EDF0)
 -- CPU_WriteMem(4 bytes @ 0xE0002000) -- CPU_ReadMem(4 bytes @ 0xE000EDFC) -- CPU_ReadMem(4 bytes @ 0xE0001000) (0017ms, 0167ms total)
T6198 000:184 JLINK_ReadReg(R15 (PC))  returns 0x0800025C (0000ms, 0167ms total)
T6198 000:184 JLINK_ReadReg(XPSR)  returns 0x01000000 (0000ms, 0167ms total)
T6198 000:184 JLINK_Halt()  returns 0x00 (0000ms, 0167ms total)
T6198 000:184 JLINK_IsHalted()  returns TRUE (0000ms, 0167ms total)
T6198 000:184 JLINK_ReadMemU32(0xE000EDF0, 0x0001 Items, ...) -- CPU_ReadMem(4 bytes @ 0xE000EDF0) - Data: 03 00 03 00  returns 0x01 (0002ms, 0169ms total)
T6198 000:186 JLINK_WriteU32(0xE000EDF0, 0xA05F0003) -- CPU_WriteMem(4 bytes @ 0xE000EDF0)  returns 0x00 (0000ms, 0169ms total)
T6198 000:186 JLINK_WriteU32(0xE000EDFC, 0x01000000) -- CPU_WriteMem(4 bytes @ 0xE000EDFC)  returns 0x00 (0001ms, 0170ms total)
T6198 000:188 JLINK_GetHWStatus(...)  returns 0x00 (0001ms, 0171ms total)
T6198 000:189 JLINK_GetNumBPUnits(Type = 0xFFFFFF00)  returns 0x06 (0000ms, 0171ms total)
T6198 000:189 JLINK_GetNumBPUnits(Type = 0xF0)  returns 0x2000 (0000ms, 0171ms total)
T6198 000:189 JLINK_GetNumWPUnits()  returns 0x04 (0000ms, 0171ms total)
T6198 000:189 JLINK_GetSpeed()  returns 0xFA0 (0000ms, 0171ms total)
T6198 000:189 JLINK_ReadMemU32(0xE000E004, 0x0001 Items, ...) -- CPU_ReadMem(4 bytes @ 0xE000E004) - Data: 02 00 00 00  returns 0x01 (0000ms, 0171ms total)
T6198 000:189 JLINK_ReadMemU32(0xE000E004, 0x0001 Items, ...) -- CPU_ReadMem(4 bytes @ 0xE000E004) - Data: 02 00 00 00  returns 0x01 (0001ms, 0172ms total)
T6198 000:190 JLINK_WriteMem(0xE0001000, 0x001C Bytes, ...) - Data: 01 00 00 00 00 00 00 00 00 00 00 00 00 00 00 00 ... -- CPU_WriteMem(28 bytes @ 0xE0001000)  returns 0x1C (0001ms, 0173ms total)
T6198 000:191 JLINK_ReadMem (0xE0001000, 0x001C Bytes, ...) -- CPU_ReadMem(28 bytes @ 0xE0001000) - Data: 01 00 00 40 00 00 00 00 00 00 00 00 00 00 00 00 ...  returns 0x00 (0001ms, 0174ms total)
T6198 000:192 JLINK_ReadReg(R15 (PC))  returns 0x0800025C (0000ms, 0174ms total)
T6198 000:192 JLINK_ReadReg(XPSR)  returns 0x01000000 (0000ms, 0174ms total)
T6198 000:590 JLINK_SetResetType(JLINKARM_RESET_TYPE_NORMAL)  returns JLINKARM_RESET_TYPE_NORMAL (0000ms, 0174ms total)
T6198 000:590 JLINK_Reset() -- CPU_WriteMem(4 bytes @ 0xE000EDF0) -- CPU_WriteMem(4 bytes @ 0xE000EDFC) >0x35 TIF> -- CPU_WriteMem(4 bytes @ 0xE000ED0C) -- CPU_ReadMem(4 bytes @ 0xE000EDF0) -- CPU_ReadMem(4 bytes @ 0xE000EDF0) -- CPU_ReadMem(4 bytes @ 0xE000EDF0) -- CPU_WriteMem(4 bytes @ 0xE000EDF0) -- CPU_WriteMem(4 bytes @ 0xE000EDFC) -- CPU is running -- CPU_ReadMem(4 bytes @ 0xE000EDF0) -- CPU_WriteMem(4 bytes @ 0xE0002000) -- CPU_ReadMem(4 bytes @ 0xE000EDFC) -- CPU_ReadMem(4 bytes @ 0xE0001000)
 (0018ms, 0192ms total)
T6198 000:608 JLINK_ReadReg(R15 (PC))  returns 0x0800025C (0000ms, 0192ms total)
T6198 000:608 JLINK_ReadReg(XPSR)  returns 0x01000000 (0000ms, 0192ms total)
T6198 000:608 JLINK_ReadMem (0x0800025C, 0x003C Bytes, ...) -- CPU_ReadMem(128 bytes @ 0x08000240) -- Updating C cache (128 bytes @ 0x08000240) -- Read from C cache (60 bytes @ 0x0800025C) - Data: 06 48 80 47 06 48 00 47 FE E7 FE E7 FE E7 FE E7 ...  returns 0x00 (0002ms, 0194ms total)
T6198 002:569 JLINK_ReadMem (0x20000214, 0x0004 Bytes, ...) -- CPU_ReadMem(64 bytes @ 0x20000200) -- Updating C cache (64 bytes @ 0x20000200) -- Read from C cache (4 bytes @ 0x20000214) - Data: 00 00 00 00  returns 0x00 (0002ms, 0196ms total)
T6198 002:578 JLINK_ReadMem (0x20000218, 0x0004 Bytes, ...) -- Read from C cache (4 bytes @ 0x20000218) - Data: 00 00 00 00  returns 0x00 (0000ms, 0196ms total)
T6198 002:594 JLINK_ReadMem (0x20000210, 0x0004 Bytes, ...) -- Read from C cache (4 bytes @ 0x20000210) - Data: 00 00 00 00  returns 0x00 (0000ms, 0196ms total)
T44D8 002:660 JLINK_SetBPEx(Addr = 0x0800CDD4, Type = 0xFFFFFFF2)  returns 0x00000001 (0000ms, 0196ms total)
T44D8 002:660 JLINK_SetBPEx(Addr = 0x08008DAE, Type = 0xFFFFFFF2)  returns 0x00000002 (0000ms, 0196ms total)
T44D8 002:660 JLINK_Go() -- CPU_WriteMem(4 bytes @ 0xE0002000) -- CPU_WriteMem(4 bytes @ 0xE0002000) -- CPU_ReadMem(4 bytes @ 0xE0001000) -- CPU_WriteMem(4 bytes @ 0xE0002008) -- CPU_WriteMem(4 bytes @ 0xE000200C) -- CPU_WriteMem(4 bytes @ 0xE0002010) -- CPU_WriteMem(4 bytes @ 0xE0002014) -- CPU_WriteMem(4 bytes @ 0xE0002018) -- CPU_WriteMem(4 bytes @ 0xE000201C) -- CPU_WriteMem(4 bytes @ 0xE0001004) (0006ms, 0202ms total)
T44D8 002:766 JLINK_IsHalted()  returns TRUE (0003ms, 0205ms total)
T44D8 002:769 JLINK_Halt()  returns 0x00 (0000ms, 0202ms total)
T44D8 002:769 JLINK_IsHalted()  returns TRUE (0000ms, 0202ms total)
T44D8 002:769 JLINK_IsHalted()  returns TRUE (0000ms, 0202ms total)
T44D8 002:769 JLINK_IsHalted()  returns TRUE (0000ms, 0202ms total)
T44D8 002:769 JLINK_ReadReg(R15 (PC))  returns 0x0800CDD4 (0000ms, 0202ms total)
T44D8 002:769 JLINK_ReadReg(XPSR)  returns 0x61000000 (0000ms, 0202ms total)
T44D8 002:769 JLINK_ClrBPEx(BPHandle = 0x00000001)  returns 0x00 (0000ms, 0202ms total)
T44D8 002:769 JLINK_ClrBPEx(BPHandle = 0x00000002)  returns 0x00 (0000ms, 0202ms total)
T44D8 002:769 JLINK_ReadMemU32(0xE000ED30, 0x0001 Items, ...) -- CPU_ReadMem(4 bytes @ 0xE000ED30) - Data: 03 00 00 00  returns 0x01 (0001ms, 0203ms total)
T44D8 002:770 JLINK_ReadMemU32(0xE0001028, 0x0001 Items, ...) -- CPU_ReadMem(4 bytes @ 0xE0001028) - Data: 00 00 00 00  returns 0x01 (0000ms, 0203ms total)
T44D8 002:770 JLINK_ReadMemU32(0xE0001038, 0x0001 Items, ...) -- CPU_ReadMem(4 bytes @ 0xE0001038) - Data: 00 02 00 00  returns 0x01 (0001ms, 0204ms total)
T44D8 002:771 JLINK_ReadMemU32(0xE0001048, 0x0001 Items, ...) -- CPU_ReadMem(4 bytes @ 0xE0001048) - Data: 00 00 00 00  returns 0x01 (0000ms, 0204ms total)
T44D8 002:771 JLINK_ReadMemU32(0xE0001058, 0x0001 Items, ...) -- CPU_ReadMem(4 bytes @ 0xE0001058) - Data: 00 00 00 00  returns 0x01 (0001ms, 0205ms total)
T44D8 002:772 JLINK_ReadReg(R0)  returns 0x0800CDD5 (0000ms, 0205ms total)
T44D8 002:772 JLINK_ReadReg(R1)  returns 0x2000ADE8 (0000ms, 0205ms total)
T44D8 002:772 JLINK_ReadReg(R2)  returns 0x00000000 (0000ms, 0205ms total)
T44D8 002:772 JLINK_ReadReg(R3)  returns 0x0800C13D (0000ms, 0205ms total)
T44D8 002:772 JLINK_ReadReg(R4)  returns 0x0800F914 (0000ms, 0205ms total)
T44D8 002:772 JLINK_ReadReg(R5)  returns 0x0800F914 (0000ms, 0205ms total)
T44D8 002:772 JLINK_ReadReg(R6)  returns 0x00000000 (0000ms, 0205ms total)
T44D8 002:772 JLINK_ReadReg(R7)  returns 0x00000000 (0000ms, 0205ms total)
T44D8 002:772 JLINK_ReadReg(R8)  returns 0x00000000 (0000ms, 0205ms total)
T44D8 002:772 JLINK_ReadReg(R9)  returns 0x00000000 (0000ms, 0205ms total)
T44D8 002:772 JLINK_ReadReg(R10)  returns 0x00000000 (0000ms, 0205ms total)
T44D8 002:772 JLINK_ReadReg(R11)  returns 0x00000000 (0000ms, 0205ms total)
T44D8 002:772 JLINK_ReadReg(R12)  returns 0x00000000 (0000ms, 0205ms total)
T44D8 002:772 JLINK_ReadReg(R13 (SP))  returns 0x2000ADE8 (0000ms, 0205ms total)
T44D8 002:772 JLINK_ReadReg(R14)  returns 0x080012A9 (0000ms, 0205ms total)
T44D8 002:772 JLINK_ReadReg(R15 (PC))  returns 0x0800CDD4 (0000ms, 0205ms total)
T44D8 002:772 JLINK_ReadReg(XPSR)  returns 0x61000000 (0000ms, 0205ms total)
T44D8 002:772 JLINK_ReadReg(MSP)  returns 0x2000ADE8 (0000ms, 0205ms total)
T44D8 002:772 JLINK_ReadReg(PSP)  returns 0x00000000 (0000ms, 0205ms total)
T44D8 002:772 JLINK_ReadReg(CFBP)  returns 0x00000000 (0000ms, 0205ms total)
T44D8 002:772 JLINK_ReadReg(FPSCR)  returns 0x00000000 (0005ms, 0210ms total)
T44D8 002:777 JLINK_ReadReg(FPS0)  returns 0x00000000 (0000ms, 0210ms total)
T44D8 002:777 JLINK_ReadReg(FPS1)  returns 0x00000000 (0000ms, 0210ms total)
T44D8 002:777 JLINK_ReadReg(FPS2)  returns 0x00000000 (0000ms, 0210ms total)
T44D8 002:777 JLINK_ReadReg(FPS3)  returns 0x00000000 (0000ms, 0210ms total)
T44D8 002:777 JLINK_ReadReg(FPS4)  returns 0x00000000 (0000ms, 0210ms total)
T44D8 002:777 JLINK_ReadReg(FPS5)  returns 0x00000000 (0000ms, 0210ms total)
T44D8 002:777 JLINK_ReadReg(FPS6)  returns 0x00000000 (0000ms, 0210ms total)
T44D8 002:777 JLINK_ReadReg(FPS7)  returns 0x00000000 (0000ms, 0210ms total)
T44D8 002:777 JLINK_ReadReg(FPS8)  returns 0x00000000 (0000ms, 0210ms total)
T44D8 002:778 JLINK_ReadReg(FPS9)  returns 0x00000000 (0000ms, 0211ms total)
T44D8 002:778 JLINK_ReadReg(FPS10)  returns 0x00000000 (0000ms, 0211ms total)
T44D8 002:778 JLINK_ReadReg(FPS11)  returns 0x00000000 (0000ms, 0211ms total)
T44D8 002:778 JLINK_ReadReg(FPS12)  returns 0x00000000 (0000ms, 0211ms total)
T44D8 002:778 JLINK_ReadReg(FPS13)  returns 0x00000000 (0000ms, 0211ms total)
T44D8 002:778 JLINK_ReadReg(FPS14)  returns 0x00000000 (0000ms, 0211ms total)
T44D8 002:778 JLINK_ReadReg(FPS15)  returns 0x00000000 (0000ms, 0211ms total)
T44D8 002:778 JLINK_ReadReg(FPS16)  returns 0x00000000 (0000ms, 0211ms total)
T44D8 002:778 JLINK_ReadReg(FPS17)  returns 0x00000000 (0000ms, 0211ms total)
T44D8 002:778 JLINK_ReadReg(FPS18)  returns 0x00000000 (0000ms, 0211ms total)
T44D8 002:778 JLINK_ReadReg(FPS19)  returns 0x00000000 (0000ms, 0211ms total)
T44D8 002:778 JLINK_ReadReg(FPS20)  returns 0x00000000 (0000ms, 0211ms total)
T44D8 002:778 JLINK_ReadReg(FPS21)  returns 0x00000000 (0000ms, 0211ms total)
T44D8 002:778 JLINK_ReadReg(FPS22)  returns 0x00000000 (0000ms, 0211ms total)
T44D8 002:778 JLINK_ReadReg(FPS23)  returns 0x00000000 (0000ms, 0211ms total)
T44D8 002:778 JLINK_ReadReg(FPS24)  returns 0x00000000 (0000ms, 0211ms total)
T44D8 002:778 JLINK_ReadReg(FPS25)  returns 0x00000000 (0000ms, 0211ms total)
T44D8 002:778 JLINK_ReadReg(FPS26)  returns 0x00000000 (0000ms, 0211ms total)
T44D8 002:778 JLINK_ReadReg(FPS27)  returns 0x00000000 (0000ms, 0211ms total)
T44D8 002:778 JLINK_ReadReg(FPS28)  returns 0x00000000 (0000ms, 0211ms total)
T44D8 002:778 JLINK_ReadReg(FPS29)  returns 0x00000000 (0000ms, 0211ms total)
T44D8 002:778 JLINK_ReadReg(FPS30)  returns 0x00000000 (0000ms, 0211ms total)
T44D8 002:778 JLINK_ReadReg(FPS31)  returns 0x00000000 (0000ms, 0211ms total)
T6198 002:828 JLINK_ReadMem (0x20000214, 0x0004 Bytes, ...) -- CPU_ReadMem(64 bytes @ 0x20000200) -- Updating C cache (64 bytes @ 0x20000200) -- Read from C cache (4 bytes @ 0x20000214) - Data: 00 00 00 00  returns 0x00 (0001ms, 0212ms total)
T6198 002:829 JLINK_ReadMem (0x20000218, 0x0004 Bytes, ...) -- Read from C cache (4 bytes @ 0x20000218) - Data: 00 00 00 00  returns 0x00 (0000ms, 0212ms total)
T6198 002:829 JLINK_ReadMem (0x20000210, 0x0004 Bytes, ...) -- Read from C cache (4 bytes @ 0x20000210) - Data: 00 00 00 00  returns 0x00 (0000ms, 0212ms total)
T6198 002:832 JLINK_ReadMem (0x0800CDD4, 0x003C Bytes, ...) -- CPU_ReadMem(128 bytes @ 0x0800CDC0) -- Updating C cache (128 bytes @ 0x0800CDC0) -- Read from C cache (60 bytes @ 0x0800CDD4) - Data: F4 F7 94 FC 64 20 FF F7 7B FB FA F7 07 FC 00 F0 ...  returns 0x00 (0002ms, 0214ms total)
T44D8 003:634 JLINK_SetBPEx(Addr = 0x08008DAE, Type = 0xFFFFFFF2)  returns 0x00000003 (0000ms, 0214ms total)
T44D8 003:634 JLINK_Go() -- CPU_WriteMem(4 bytes @ 0xE0002000) -- CPU_ReadMem(4 bytes @ 0xE0001000) -- CPU_WriteMem(4 bytes @ 0xE0002008) -- CPU_WriteMem(4 bytes @ 0xE000200C) (0004ms, 0218ms total)
T44D8 003:739 JLINK_IsHalted()  returns FALSE (0001ms, 0219ms total)
T44D8 003:840 JLINK_IsHalted()  returns FALSE (0000ms, 0218ms total)
T44D8 003:942 JLINK_IsHalted()  returns FALSE (0000ms, 0218ms total)
T44D8 004:043 JLINK_IsHalted()  returns FALSE (0001ms, 0219ms total)
T44D8 004:144 JLINK_IsHalted()  returns FALSE (0000ms, 0218ms total)
T44D8 004:244 JLINK_ReadMemU32(0xE0001004, 0x0001 Items, ...) -- CPU is running -- CPU_ReadMem(4 bytes @ 0xE0001004) - Data: 9C C3 0C 06  returns 0x01 (0000ms, 0218ms total)
T6198 004:279 JLINK_ReadMem (0x20000214, 0x0004 Bytes, ...) -- CPU is running -- CPU_ReadMem(4 bytes @ 0x20000214) - Data: 00 00 00 00  returns 0x00 (0001ms, 0219ms total)
T6198 004:280 JLINK_ReadMem (0x20000218, 0x0004 Bytes, ...) -- CPU is running -- CPU_ReadMem(4 bytes @ 0x20000218) - Data: 00 00 00 00  returns 0x00 (0000ms, 0219ms total)
T6198 004:280 JLINK_ReadMem (0x20000210, 0x0004 Bytes, ...) -- CPU is running -- CPU_ReadMem(4 bytes @ 0x20000210) - Data: 00 00 00 00  returns 0x00 (0002ms, 0221ms total)
T44D8 004:282 JLINK_IsHalted()  returns FALSE (0000ms, 0221ms total)
T44D8 004:383 JLINK_IsHalted()  returns FALSE (0000ms, 0221ms total)
T44D8 004:485 JLINK_IsHalted()  returns FALSE (0000ms, 0221ms total)
T44D8 004:585 JLINK_IsHalted()  returns FALSE (0000ms, 0221ms total)
T44D8 004:686 JLINK_IsHalted()  returns FALSE (0000ms, 0221ms total)
T44D8 004:787 JLINK_ReadMemU32(0xE0001004, 0x0001 Items, ...) -- CPU is running - Data: 9C C3 0C 06  returns 0x01 (0000ms, 0221ms total)
T6198 004:821 JLINK_ReadMem (0x20000214, 0x0004 Bytes, ...) -- CPU is running -- CPU_ReadMem(4 bytes @ 0x20000214) - Data: 00 00 00 00  returns 0x00 (0001ms, 0222ms total)
T6198 004:822 JLINK_ReadMem (0x20000218, 0x0004 Bytes, ...) -- CPU is running -- CPU_ReadMem(4 bytes @ 0x20000218) - Data: 00 00 00 00  returns 0x00 (0000ms, 0222ms total)
T6198 004:822 JLINK_ReadMem (0x20000210, 0x0004 Bytes, ...) -- CPU is running -- CPU_ReadMem(4 bytes @ 0x20000210) - Data: 00 00 00 00  returns 0x00 (0001ms, 0223ms total)
T44D8 004:823 JLINK_IsHalted()  returns FALSE (0000ms, 0223ms total)
T44D8 004:924 JLINK_IsHalted()  returns FALSE (0000ms, 0223ms total)
T44D8 005:026 JLINK_IsHalted()  returns FALSE (0000ms, 0223ms total)
T44D8 005:127 JLINK_IsHalted()  returns FALSE (0000ms, 0223ms total)
T44D8 005:228 JLINK_IsHalted()  returns FALSE (0000ms, 0223ms total)
T44D8 005:329 JLINK_ReadMemU32(0xE0001004, 0x0001 Items, ...) -- CPU is running - Data: 9C C3 0C 06  returns 0x01 (0000ms, 0223ms total)
T6198 005:364 JLINK_ReadMem (0x20000214, 0x0004 Bytes, ...) -- CPU is running -- CPU_ReadMem(4 bytes @ 0x20000214) - Data: 00 00 00 00  returns 0x00 (0001ms, 0224ms total)
T6198 005:365 JLINK_ReadMem (0x20000218, 0x0004 Bytes, ...) -- CPU is running -- CPU_ReadMem(4 bytes @ 0x20000218) - Data: 00 00 00 00  returns 0x00 (0000ms, 0224ms total)
T6198 005:365 JLINK_ReadMem (0x20000210, 0x0004 Bytes, ...) -- CPU is running -- CPU_ReadMem(4 bytes @ 0x20000210) - Data: 00 00 00 00  returns 0x00 (0001ms, 0225ms total)
T44D8 005:366 JLINK_IsHalted()  returns FALSE (0001ms, 0226ms total)
T44D8 005:468 JLINK_IsHalted()  returns FALSE (0000ms, 0225ms total)
T44D8 005:569 JLINK_IsHalted()  returns FALSE (0000ms, 0225ms total)
T44D8 005:669 JLINK_IsHalted()  returns FALSE (0000ms, 0225ms total)
T44D8 005:770 JLINK_IsHalted()  returns FALSE (0000ms, 0225ms total)
T44D8 005:872 JLINK_ReadMemU32(0xE0001004, 0x0001 Items, ...) -- CPU is running - Data: 9C C3 0C 06  returns 0x01 (0000ms, 0225ms total)
T6198 005:906 JLINK_ReadMem (0x20000214, 0x0004 Bytes, ...) -- CPU is running -- CPU_ReadMem(4 bytes @ 0x20000214) - Data: 00 00 00 00  returns 0x00 (0001ms, 0226ms total)
T6198 005:907 JLINK_ReadMem (0x20000218, 0x0004 Bytes, ...) -- CPU is running -- CPU_ReadMem(4 bytes @ 0x20000218) - Data: 00 00 00 00  returns 0x00 (0000ms, 0226ms total)
T6198 005:907 JLINK_ReadMem (0x20000210, 0x0004 Bytes, ...) -- CPU is running -- CPU_ReadMem(4 bytes @ 0x20000210) - Data: 00 00 00 00  returns 0x00 (0001ms, 0227ms total)
T44D8 005:910 JLINK_IsHalted()  returns FALSE (0001ms, 0228ms total)
T44D8 006:012 JLINK_IsHalted()  returns FALSE (0000ms, 0227ms total)
T44D8 006:113 JLINK_IsHalted()  returns FALSE (0000ms, 0227ms total)
T44D8 006:213 JLINK_IsHalted()  returns FALSE (0000ms, 0227ms total)
T44D8 006:315 JLINK_IsHalted()  returns FALSE (0000ms, 0227ms total)
T44D8 006:415 JLINK_ReadMemU32(0xE0001004, 0x0001 Items, ...) -- CPU is running - Data: 9C C3 0C 06  returns 0x01 (0000ms, 0227ms total)
T6198 006:451 JLINK_ReadMem (0x20000214, 0x0004 Bytes, ...) -- CPU is running -- CPU_ReadMem(4 bytes @ 0x20000214) - Data: 00 00 00 00  returns 0x00 (0000ms, 0227ms total)
T6198 006:451 JLINK_ReadMem (0x20000218, 0x0004 Bytes, ...) -- CPU is running -- CPU_ReadMem(4 bytes @ 0x20000218) - Data: 00 00 00 00  returns 0x00 (0001ms, 0228ms total)
T6198 006:452 JLINK_ReadMem (0x20000210, 0x0004 Bytes, ...) -- CPU is running -- CPU_ReadMem(4 bytes @ 0x20000210) - Data: 00 00 00 00  returns 0x00 (0000ms, 0228ms total)
T44D8 006:453 JLINK_IsHalted()  returns FALSE (0001ms, 0229ms total)
T44D8 006:554 JLINK_IsHalted()  returns FALSE (0001ms, 0229ms total)
T44D8 006:655 JLINK_IsHalted()  returns FALSE (0000ms, 0228ms total)
T44D8 006:756 JLINK_IsHalted()  returns FALSE (0001ms, 0229ms total)
T44D8 006:857 JLINK_IsHalted()  returns FALSE (0001ms, 0229ms total)
T44D8 006:958 JLINK_ReadMemU32(0xE0001004, 0x0001 Items, ...) -- CPU is running - Data: 9C C3 0C 06  returns 0x01 (0000ms, 0228ms total)
